Circuit: * C:\HOME_projects\SYNTH_GOOM\2LineartoExponential\main_pnpbased.asc

WARNING: Less than two connections to node VCC.  This node is used by V4.
Direct Newton iteration failed to find .op point.  (Use ".option noopiter" to skip.)
Starting Gmin stepping
Gmin = 10
Gmin = 1.07374
Gmin = 0.115292
Gmin = 0.0123794
Gmin = 0.00132923
Gmin = 0.000142725
vernier = 0.5
vernier = 0.25
vernier = 0.125
Gmin = 5.84601e-005
vernier = 0.0625
vernier = 0.0833333
Gmin = 5.03406e-005
vernier = 0.111111
Gmin = 3.93282e-005
vernier = 0.148148
vernier = 0.197531
Gmin = 2.60737e-005
vernier = 0.263374
vernier = 0.351165
Gmin = 1.36484e-005
vernier = 0.46822
Gmin = 5.01711e-006
vernier = 0.624294
vernier = 0.832392
Gmin = 9.8658e-007
vernier = 1
vernier = 0.5
vernier = 0.25
vernier = 0.125
Gmin = 4.07173e-007
vernier = 0.0625
vernier = 0.03125
vernier = 0.015625
vernier = 0.0078125
vernier = 0.00390625
vernier = 0.00195313
vernier = 0.000976563
vernier = 0.000488281
Gmin = 0
Gmin stepping failed

Starting source stepping with srcstepmethod=0
Source Step = 3.0303%
Source Step = 33.3333%
Source Step = 63.6364%
Source Step = 88.6364%
vernier = 0.0625
Source Step = 87.8995%
Starting source stepping with srcstepmethod=1
Source Step = 3.0303%
Source Step = 33.3333%
Source Step = 63.6364%
Source Step = 93.9394%
Source Step = 99.1894%
vernier = 0.015625
Source Step = 99.0237%
Source stepping failed

Pseudo Transient succeeded in finding the operating point at 447.89 ms.
Semiconductor Device Operating Points:
                        --- Diodes ---
Name:  d:u3:e_n:2  d:u3:e_n:1  d:u3:i_np:2  d:u3:i_np:1  d:u3:i_nn:2
Model: u3:e_n:dvn  u3:e_n:dvn  u3:i_np:dvnf u3:i_np:dvnf u3:i_nn:dvnf
Id:      1.00e-02    1.00e-02    1.00e-02     1.00e-02     1.00e-02
Vd:      8.34e-01    8.34e-01    8.34e-01     8.34e-01     8.34e-01
Req:     2.59e+00    2.59e+00    2.59e+00     2.59e+00     2.59e+00
CAP:     0.00e+00    0.00e+00    0.00e+00     0.00e+00     0.00e+00

Name:  d:u3:i_nn:1
Model: u3:i_nn:dvnf
Id:      1.00e-02
Vd:      8.34e-01
Req:     2.59e+00
CAP:     0.00e+00

                        --- Bipolar Transistors ---
Name:       q2          q1
Model:    bc557c      bc557c
Ib:      -3.49e-08   -2.41e-08
Ic:      -1.46e-05   -9.98e-06
Vbe:     -5.07e-01   -4.97e-01
Vbc:     -1.46e-05    7.01e-03
Vce:     -5.07e-01   -5.04e-01
BetaDC:   4.19e+02    4.14e+02
Gm:       5.57e-04    3.80e-04
Rpi:      7.75e+05    1.12e+06
Rx:       1.00e+00    1.00e+00
Ro:       1.65e+06    2.42e+06
Cbe:      2.80e-11    2.76e-11
Cbc:      4.90e-12    4.88e-12
Cjs:      0.00e+00    0.00e+00
BetaAC:   4.32e+02    4.28e+02
Cbx:      2.90e-12    2.88e-12
Ft:       2.47e+06    1.71e+06



Date: Sun Sep 24 00:35:39 2023
Total elapsed time: 8.290 seconds.

tnom = 27
temp = 27
method = trap
totiter = 1513
traniter = 0
tranpoints = 0
accept = 0
rejected = 0
matrix size = 149
fillins = 151
solver = Normal
Thread vector: 14.8/7.6[3] 0.0/0.0[0] 3.9/4.3[1] 0.7/2.4[1]  2592/500
Matrix Compiler1: 16.18 KB object code size
Matrix Compiler2: 14.70 KB object code size  2.1/2.9/[1.7]

