Circuit: * C:\MY_GIT_REP\analog_synth\simulations\main_trim_and_linexp.asc

WARNING: Less than two connections to node VCC.  This node is used by V8.
Direct Newton iteration failed to find .op point.  (Use ".option noopiter" to skip.)
Starting Gmin stepping
Gmin = 10
Gmin = 1.07374
Gmin = 0.115292
Gmin = 0.0123794
Gmin = 0.00132923
Gmin = 0.000142725
vernier = 0.5
vernier = 0.25
vernier = 0.125
Gmin = 5.84601e-005
vernier = 0.166667
Gmin = 4.08692e-005
vernier = 0.222222
vernier = 0.296296
Gmin = 2.28917e-005
vernier = 0.395061
vernier = 0.526748
Gmin = 9.27725e-006
vernier = 0.702331
Gmin = 2.22598e-006
vernier = 0.936441
vernier = 0.46822
vernier = 0.23411
vernier = 0.117055
vernier = 0.0585276
Gmin = 8.16305e-007
vernier = 0.0292638
vernier = 0.0146319
vernier = 0.00731595
vernier = 0.00365797
vernier = 0.00182899
vernier = 0.000914493
vernier = 0.000457247
Gmin = 0
Gmin stepping failed

Starting source stepping with srcstepmethod=0
Source Step = 3.0303%
Source Step = 33.3333%
Source Step = 63.6364%
Source Step = 88.6364%
vernier = 0.0625
Source Step = 87.8995%
Starting source stepping with srcstepmethod=1
Source Step = 3.0303%
Source Step = 33.3333%
Source Step = 63.6364%
Source Step = 93.9394%
Source Step = 99.0473%
vernier = 0.00390625
Source stepping failed

Pseudo Transient succeeded in finding the operating point at 550.308 ms.
Semiconductor Device Operating Points:
                        --- Diodes ---
Name:  d:u4:e_n:2  d:u4:e_n:1  d:u4:i_np:2  d:u4:i_np:1  d:u4:i_nn:2
Model: u4:e_n:dvn  u4:e_n:dvn  u4:i_np:dvnf u4:i_np:dvnf u4:i_nn:dvnf
Id:      1.00e-02    1.00e-02    1.00e-02     1.00e-02     1.00e-02
Vd:      8.34e-01    8.34e-01    8.34e-01     8.34e-01     8.34e-01
Req:     2.59e+00    2.59e+00    2.59e+00     2.59e+00     2.59e+00
CAP:     0.00e+00    0.00e+00    0.00e+00     0.00e+00     0.00e+00

Name:  d:u4:i_nn:1  d:u2:e_n:2  d:u2:e_n:1  d:u2:i_np:2  d:u2:i_np:1
Model: u4:i_nn:dvnf u2:e_n:dvn  u2:e_n:dvn  u2:i_np:dvnf u2:i_np:dvnf
Id:      1.00e-02     1.00e-02    1.00e-02    1.00e-02     1.00e-02
Vd:      8.34e-01     8.34e-01    8.34e-01    8.34e-01     8.34e-01
Req:     2.59e+00     2.59e+00    2.59e+00    2.59e+00     2.59e+00
CAP:     0.00e+00     0.00e+00    0.00e+00    0.00e+00     0.00e+00

Name:  d:u2:i_nn:2  d:u2:i_nn:1  d:u1:e_n:2  d:u1:e_n:1  d:u1:i_np:2
Model: u2:i_nn:dvnf u2:i_nn:dvnf u1:e_n:dvn  u1:e_n:dvn  u1:i_np:dvnf
Id:      1.00e-02     1.00e-02     1.00e-02    1.00e-02    1.00e-02
Vd:      8.34e-01     8.34e-01     8.34e-01    8.34e-01    8.34e-01
Req:     2.59e+00     2.59e+00     2.59e+00    2.59e+00    2.59e+00
CAP:     0.00e+00     0.00e+00     0.00e+00    0.00e+00    0.00e+00

Name:  d:u1:i_np:1  d:u1:i_nn:2  d:u1:i_nn:1
Model: u1:i_np:dvnf u1:i_nn:dvnf u1:i_nn:dvnf
Id:      1.00e-02     1.00e-02     1.00e-02
Vd:      8.34e-01     8.34e-01     8.34e-01
Req:     2.59e+00     2.59e+00     2.59e+00
CAP:     0.00e+00     0.00e+00     0.00e+00

                        --- Bipolar Transistors ---
Name:       q4          q3
Model:    bc547c      bc547c
Ib:       2.22e-08    2.24e-08
Ic:       9.90e-06    1.00e-05
Vbe:      5.01e-01    5.01e-01
Vbc:     -2.76e-04   -1.15e-05
Vce:      5.01e-01    5.01e-01
BetaDC:   4.47e+02    4.47e+02
Gm:       3.79e-04    3.83e-04
Rpi:      1.19e+06    1.18e+06
Rx:       1.00e+00    1.00e+00
Ro:       5.31e+06    5.25e+06
Cbe:      2.47e-11    2.47e-11
Cbc:      2.74e-12    2.74e-12
Cjs:      0.00e+00    0.00e+00
BetaAC:   4.50e+02    4.50e+02
Cbx:      1.68e-12    1.68e-12
Ft:       2.07e+06    2.09e+06



Date: Mon Oct 20 19:35:26 2025
Total elapsed time: 65.221 seconds.

tnom = 27
temp = 27
method = trap
totiter = 50750
traniter = 0
tranpoints = 0
accept = 0
rejected = 1331
matrix size = 419
fillins = 621
solver = Normal
Thread vector: 33.0/15.6[8] 0.0/0.0[8] 22.1/6.1[8] 1.9/4.1[1]  2592/500
Matrix Compiler1: 58.27 KB object code size  30.4/16.5/[6.8]
Matrix Compiler2: 45.39 KB object code size  16.4/18.5/[3.2]

